Circuit: * C:\Users\hp\Documents\LTspiceXVII\251 Lab05\HomeTasks\Draft1.asc

Direct Newton iteration for .op point succeeded.
Semiconductor Device Operating Points:
                        --- MOSFET Transistors ---
Name:          m2          m1
Model:        nmos        nmos
Id:          5.01e-12    5.01e-12
Vgs:         0.00e+00   -2.50e+00
Vds:         2.50e+00    2.50e+00
Vbs:         0.00e+00    0.00e+00
Vth:         0.00e+00    0.00e+00
Vdsat:       0.00e+00    0.00e+00
Gm:          0.00e+00    0.00e+00
Gds:         0.00e+00    0.00e+00
Gmb:         0.00e+00    0.00e+00
Cbd:         0.00e+00    0.00e+00
Cbs:         0.00e+00    0.00e+00
Cgsov:       0.00e+00    0.00e+00
Cgdov:       0.00e+00    0.00e+00
Cgbov:       0.00e+00    0.00e+00
Cgs:         0.00e+00    0.00e+00
Cgd:         0.00e+00    0.00e+00
Cgb:        -0.00e+00    0.00e+00



Date: Tue Nov 28 12:24:46 2023
Total elapsed time: 0.069 seconds.

tnom = 27
temp = 27
method = trap
totiter = 4
traniter = 0
tranpoints = 0
accept = 0
rejected = 0
matrix size = 8
fillins = 0
solver = Normal
Matrix Compiler1: 228 bytes object code size
Matrix Compiler2: 540 bytes object code size
