Circuit: * C:\Users\hp\Documents\LTspiceXVII\251 Lab06\Task01.asc

Direct Newton iteration for .op point succeeded.
Semiconductor Device Operating Points:
                        --- MOSFET Transistors ---
Name:          m2          m1
Model:        nmos        nmos
Id:          4.10e-05    4.10e-05
Vgs:         5.00e+00    4.57e+00
Vds:         4.28e-01    4.73e-01
Vbs:         0.00e+00    0.00e+00
Vth:         0.00e+00    0.00e+00
Vdsat:       5.00e+00    4.57e+00
Gm:          8.56e-06    9.45e-06
Gds:         9.14e-05    8.20e-05
Gmb:         0.00e+00    0.00e+00
Cbd:         0.00e+00    0.00e+00
Cbs:         0.00e+00    0.00e+00
Cgsov:       0.00e+00    0.00e+00
Cgdov:       0.00e+00    0.00e+00
Cgbov:       0.00e+00    0.00e+00
Cgs:         0.00e+00    0.00e+00
Cgd:         0.00e+00    0.00e+00
Cgb:         0.00e+00    0.00e+00



Date: Tue Nov 28 13:10:44 2023
Total elapsed time: 0.081 seconds.

tnom = 27
temp = 27
method = trap
totiter = 12
traniter = 0
tranpoints = 0
accept = 0
rejected = 0
matrix size = 8
fillins = 0
solver = Normal
Matrix Compiler1: 228 bytes object code size
Matrix Compiler2: 540 bytes object code size
